Title: * rc low-pass filter
Date: Mon Jun 29 21:21:26  2026
Command: ngspice-46, Build 
Plotname: AC Analysis
Flags: complex
No. Variables: 4
No. Points: 401
Variables:
	0	frequency	frequency grid=3
	1	v(1)	voltage
	2	v(2)	voltage
	3	i(v1)	current
Values:
 0	1.000000000000000e+01,0.000000000000000e+00
	1.000000000000000e+00,0.000000000000000e+00
	9.960676824071726e-01,-6.258477827057168e-02
	-3.932317592827365e-06,-6.258477827057168e-05

 1	1.023292992280754e+01,0.000000000000000e+00
	1.000000000000000e+00,0.000000000000000e+00
	9.958831209467647e-01,-6.403069857573312e-02
	-4.116879053235340e-06,-6.403069857573313e-05

 2	1.047128548050899e+01,0.000000000000000e+00
	1.000000000000000e+00,0.000000000000000e+00
	9.956899346642752e-01,-6.550945483307397e-02
	-4.310065335724669e-06,-6.550945483307397e-05

 3	1.071519305237606e+01,0.000000000000000e+00
	1.000000000000000e+00,0.000000000000000e+00
	9.954877241086102e-01,-6.702175212324540e-02
	-4.512275891389731e-06,-6.702175212324541e-05

 4	1.096478196143185e+01,0.000000000000000e+00
	1.000000000000000e+00,0.000000000000000e+00
	9.952760716739228e-01,-6.856830774670865e-02
	-4.723928326077131e-06,-6.856830774670865e-05

 5	1.122018454301963e+01,0.000000000000000e+00
	1.000000000000000e+00,0.000000000000000e+00
	9.950545408077109e-01,-7.014985121628133e-02
	-4.945459192289134e-06,-7.014985121628132e-05

 6	1.148153621496883e+01,0.000000000000000e+00
	1.000000000000000e+00,0.000000000000000e+00
	9.948226751875932e-01,-7.176712422964743e-02
	-5.177324812406878e-06,-7.176712422964744e-05

 7	1.174897554939530e+01,0.000000000000000e+00
	1.000000000000000e+00,0.000000000000000e+00
	9.945799978658398e-01,-7.342088062006556e-02
	-5.420002134160157e-06,-7.342088062006557e-05

 8	1.202264434617413e+01,0.000000000000000e+00
	1.000000000000000e+00,0.000000000000000e+00
	9.943260103807515e-01,-7.511188628339108e-02
	-5.673989619248403e-06,-7.511188628339108e-05

 9	1.230268770812381e+01,0.000000000000000e+00
	1.000000000000000e+00,0.000000000000000e+00
	9.940601918339836e-01,-7.684091907940192e-02
	-5.939808166016258e-06,-7.684091907940193e-05

 10	1.258925411794167e+01,0.000000000000000e+00
	1.000000000000000e+00,0.000000000000000e+00
	9.937819979329331e-01,-7.860876870528424e-02
	-6.218002067066896e-06,-7.860876870528424e-05

 11	1.288249551693134e+01,0.000000000000000e+00
	1.000000000000000e+00,0.000000000000000e+00
	9.934908599973304e-01,-8.041623653899327e-02
	-6.509140002669642e-06,-8.041623653899326e-05

 12	1.318256738556407e+01,0.000000000000000e+00
	1.000000000000000e+00,0.000000000000000e+00
	9.931861839292078e-01,-8.226413545005837e-02
	-6.813816070792150e-06,-8.226413545005837e-05

 13	1.348962882591653e+01,0.000000000000000e+00
	1.000000000000000e+00,0.000000000000000e+00
	9.928673491454520e-01,-8.415328957524448e-02
	-7.132650854547963e-06,-8.415328957524449e-05

 14	1.380384264602884e+01,0.000000000000000e+00
	1.000000000000000e+00,0.000000000000000e+00
	9.925337074721956e-01,-8.608453405631920e-02
	-7.466292527804307e-06,-8.608453405631920e-05

 15	1.412537544622754e+01,0.000000000000000e+00
	1.000000000000000e+00,0.000000000000000e+00
	9.921845820003579e-01,-8.805871473700445e-02
	-7.815417999642053e-06,-8.805871473700446e-05

 16	1.445439770745927e+01,0.000000000000000e+00
	1.000000000000000e+00,0.000000000000000e+00
	9.918192659017100e-01,-9.007668781601073e-02
	-8.180734098289962e-06,-9.007668781601074e-05

 17	1.479108388168207e+01,0.000000000000000e+00
	1.000000000000000e+00,0.000000000000000e+00
	9.914370212049175e-01,-9.213931945286652e-02
	-8.562978795082464e-06,-9.213931945286652e-05

 18	1.513561248436208e+01,0.000000000000000e+00
	1.000000000000000e+00,0.000000000000000e+00
	9.910370775310965e-01,-9.424748532305693e-02
	-8.962922468903510e-06,-9.424748532305694e-05

 19	1.548816618912481e+01,0.000000000000000e+00
	1.000000000000000e+00,0.000000000000000e+00
	9.906186307885311e-01,-9.640207011878441e-02
	-9.381369211468836e-06,-9.640207011878441e-05

 20	1.584893192461113e+01,0.000000000000000e+00
	1.000000000000000e+00,0.000000000000000e+00
	9.901808418263093e-01,-9.860396699144977e-02
	-9.819158173690829e-06,-9.860396699144977e-05

 21	1.621810097358929e+01,0.000000000000000e+00
	1.000000000000000e+00,0.000000000000000e+00
	9.897228350467723e-01,-1.008540769317331e-01
	-1.027716495322767e-05,-1.008540769317331e-04

 22	1.659586907437560e+01,0.000000000000000e+00
	1.000000000000000e+00,0.000000000000000e+00
	9.892436969768228e-01,-1.031533080829248e-01
	-1.075630302317730e-05,-1.031533080829248e-04

 23	1.698243652461744e+01,0.000000000000000e+00
	1.000000000000000e+00,0.000000000000000e+00
	9.887424747983061e-01,-1.055025749829221e-01
	-1.125752520169396e-05,-1.055025749829221e-04

 24	1.737800828749375e+01,0.000000000000000e+00
	1.000000000000000e+00,0.000000000000000e+00
	9.882181748378741e-01,-1.079027977300633e-01
	-1.178182516212590e-05,-1.079027977300633e-04

 25	1.778279410038922e+01,0.000000000000000e+00
	1.000000000000000e+00,0.000000000000000e+00
	9.876697610169543e-01,-1.103549010677226e-01
	-1.233023898304566e-05,-1.103549010677226e-04

 26	1.819700858609983e+01,0.000000000000000e+00
	1.000000000000000e+00,0.000000000000000e+00
	9.870961532626846e-01,-1.128598133823333e-01
	-1.290384673731534e-05,-1.128598133823333e-04

 27	1.862087136662867e+01,0.000000000000000e+00
	1.000000000000000e+00,0.000000000000000e+00
	9.864962258809484e-01,-1.154184656092483e-01
	-1.350377411905163e-05,-1.154184656092483e-04

 28	1.905460717963246e+01,0.000000000000000e+00
	1.000000000000000e+00,0.000000000000000e+00
	9.858688058929247e-01,-1.180317900405797e-01
	-1.413119410707537e-05,-1.180317900405797e-04

 29	1.949844599758044e+01,0.000000000000000e+00
	1.000000000000000e+00,0.000000000000000e+00
	9.852126713369175e-01,-1.207007190288964e-01
	-1.478732866308247e-05,-1.207007190288964e-04

 30	1.995262314968879e+01,0.000000000000000e+00
	1.000000000000000e+00,0.000000000000000e+00
	9.845265495375670e-01,-1.234261835803880e-01
	-1.547345046243299e-05,-1.234261835803880e-04

 31	2.041737944669528e+01,0.000000000000000e+00
	1.000000000000000e+00,0.000000000000000e+00
	9.838091153449582e-01,-1.262091118308376e-01
	-1.619088465504184e-05,-1.262091118308376e-04

 32	2.089296130854038e+01,0.000000000000000e+00
	1.000000000000000e+00,0.000000000000000e+00
	9.830589893465682e-01,-1.290504273974798e-01
	-1.694101065343183e-05,-1.290504273974798e-04

 33	2.137962089502231e+01,0.000000000000000e+00
	1.000000000000000e+00,0.000000000000000e+00
	9.822747360554752e-01,-1.319510475995613e-01
	-1.772526394452478e-05,-1.319510475995613e-04

 34	2.187761623949551e+01,0.000000000000000e+00
	1.000000000000000e+00,0.000000000000000e+00
	9.814548620787736e-01,-1.349118815401708e-01
	-1.854513792122633e-05,-1.349118815401708e-04

 35	2.238721138568338e+01,0.000000000000000e+00
	1.000000000000000e+00,0.000000000000000e+00
	9.805978142707001e-01,-1.379338280416574e-01
	-1.940218572929996e-05,-1.379338280416574e-04

 36	2.290867652767771e+01,0.000000000000000e+00
	1.000000000000000e+00,0.000000000000000e+00
	9.797019778756026e-01,-1.410177734267378e-01
	-2.029802212439734e-05,-1.410177734267378e-04

 37	2.344228815319920e+01,0.000000000000000e+00
	1.000000000000000e+00,0.000000000000000e+00
	9.787656746665424e-01,-1.441645891371747e-01
	-2.123432533345762e-05,-1.441645891371747e-04

 38	2.398832919019489e+01,0.000000000000000e+00
	1.000000000000000e+00,0.000000000000000e+00
	9.777871610860525e-01,-1.473751291817261e-01
	-2.221283891394761e-05,-1.473751291817261e-04

 39	2.454708915685028e+01,0.000000000000000e+00
	1.000000000000000e+00,0.000000000000000e+00
	9.767646263963491e-01,-1.506502274049049e-01
	-2.323537360365098e-05,-1.506502274049049e-04

 40	2.511886431509578e+01,0.000000000000000e+00
	1.000000000000000e+00,0.000000000000000e+00
	9.756961908471387e-01,-1.539906945679597e-01
	-2.430380915286129e-05,-1.539906945679597e-04

 41	2.570395782768862e+01,0.000000000000000e+00
	1.000000000000000e+00,0.000000000000000e+00
	9.745799038700624e-01,-1.573973152334001e-01
	-2.542009612993752e-05,-1.573973152334001e-04

 42	2.630267991895380e+01,0.000000000000000e+00
	1.000000000000000e+00,0.000000000000000e+00
	9.734137423097922e-01,-1.608708444443485e-01
	-2.658625769020781e-05,-1.608708444443485e-04

 43	2.691534803926913e+01,0.000000000000000e+00
	1.000000000000000e+00,0.000000000000000e+00
	9.721956087028174e-01,-1.644120041900096e-01
	-2.780439129718257e-05,-1.644120041900096e-04

 44	2.754228703338164e+01,0.000000000000000e+00
	1.000000000000000e+00,0.000000000000000e+00
	9.709233296160722e-01,-1.680214796486219e-01
	-2.907667038392779e-05,-1.680214796486220e-04

 45	2.818382931264451e+01,0.000000000000000e+00
	1.000000000000000e+00,0.000000000000000e+00
	9.695946540587104e-01,-1.716999151993970e-01
	-3.040534594128967e-05,-1.716999151993970e-04

 46	2.884031503126603e+01,0.000000000000000e+00
	1.000000000000000e+00,0.000000000000000e+00
	9.682072519815829e-01,-1.754479101951762e-01
	-3.179274801841717e-05,-1.754479101951762e-04

 47	2.951209226666383e+01,0.000000000000000e+00
	1.000000000000000e+00,0.000000000000000e+00
	9.667587128802678e-01,-1.792660144878436e-01
	-3.324128711973222e-05,-1.792660144878436e-04

 48	3.019951720402014e+01,0.000000000000000e+00
	1.000000000000000e+00,0.000000000000000e+00
	9.652465445188816e-01,-1.831547236989547e-01
	-3.475345548111842e-05,-1.831547236989547e-04

 49	3.090295432513588e+01,0.000000000000000e+00
	1.000000000000000e+00,0.000000000000000e+00
	9.636681717933303e-01,-1.871144742285606e-01
	-3.633182820666971e-05,-1.871144742285606e-04

 50	3.162277660168376e+01,0.000000000000000e+00
	1.000000000000000e+00,0.000000000000000e+00
	9.620209357541626e-01,-1.911456379958696e-01
	-3.797906424583743e-05,-1.911456379958696e-04

 51	3.235936569296280e+01,0.000000000000000e+00
	1.000000000000000e+00,0.000000000000000e+00
	9.603020928107295e-01,-1.952485169061791e-01
	-3.969790718927042e-05,-1.952485169061791e-04

 52	3.311311214825908e+01,0.000000000000000e+00
	1.000000000000000e+00,0.000000000000000e+00
	9.585088141399730e-01,-1.994233370394639e-01
	-4.149118586002697e-05,-1.994233370394639e-04

 53	3.388441561392022e+01,0.000000000000000e+00
	1.000000000000000e+00,0.000000000000000e+00
	9.566381853247949e-01,-2.036702425571252e-01
	-4.336181467520502e-05,-2.036702425571252e-04

 54	3.467368504525312e+01,0.000000000000000e+00
	1.000000000000000e+00,0.000000000000000e+00
	9.546872062486489e-01,-2.079892893247118e-01
	-4.531279375135115e-05,-2.079892893247118e-04

 55	3.548133892335751e+01,0.000000000000000e+00
	1.000000000000000e+00,0.000000000000000e+00
	9.526527912746885e-01,-2.123804382499324e-01
	-4.734720872531155e-05,-2.123804382499324e-04

 56	3.630780547701009e+01,0.000000000000000e+00
	1.000000000000000e+00,0.000000000000000e+00
	9.505317697395133e-01,-2.168435483370032e-01
	-4.946823026048678e-05,-2.168435483370032e-04

 57	3.715352290971721e+01,0.000000000000000e+00
	1.000000000000000e+00,0.000000000000000e+00
	9.483208867932469e-01,-2.213783694603353e-01
	-5.167911320675311e-05,-2.213783694603353e-04

 58	3.801893963205607e+01,0.000000000000000e+00
	1.000000000000000e+00,0.000000000000000e+00
	9.460168046193490e-01,-2.259845348627764e-01
	-5.398319538065096e-05,-2.259845348627764e-04

 59	3.890451449942801e+01,0.000000000000000e+00
	1.000000000000000e+00,0.000000000000000e+00
	9.436161040691730e-01,-2.306615533860999e-01
	-5.638389593082705e-05,-2.306615533860999e-04

 60	3.981071705534967e+01,0.000000000000000e+00
	1.000000000000000e+00,0.000000000000000e+00
	9.411152867478173e-01,-2.354088014441917e-01
	-5.888471325218273e-05,-2.354088014441917e-04

 61	4.073802778041122e+01,0.000000000000000e+00
	1.000000000000000e+00,0.000000000000000e+00
	9.385107775892456e-01,-2.402255147524410e-01
	-6.148922241075438e-05,-2.402255147524410e-04

 62	4.168693834703348e+01,0.000000000000000e+00
	1.000000000000000e+00,0.000000000000000e+00
	9.357989279599368e-01,-2.451107798302021e-01
	-6.420107204006321e-05,-2.451107798302021e-04

 63	4.265795188015920e+01,0.000000000000000e+00
	1.000000000000000e+00,0.000000000000000e+00
	9.329760193314391e-01,-2.500635252968759e-01
	-6.702398066856083e-05,-2.500635252968759e-04

 64	4.365158322401653e+01,0.000000000000000e+00
	1.000000000000000e+00,0.000000000000000e+00
	9.300382675630904e-01,-2.550825129861628e-01
	-6.996173243690963e-05,-2.550825129861628e-04

 65	4.466835921509625e+01,0.000000000000000e+00
	1.000000000000000e+00,0.000000000000000e+00
	9.269818278368046e-01,-2.601663289073768e-01
	-7.301817216319537e-05,-2.601663289073769e-04

 66	4.570881896148743e+01,0.000000000000000e+00
	1.000000000000000e+00,0.000000000000000e+00
	9.238028002861407e-01,-2.653133740873714e-01
	-7.619719971385934e-05,-2.653133740873714e-04

 67	4.677351412871975e+01,0.000000000000000e+00
	1.000000000000000e+00,0.000000000000000e+00
	9.204972363618328e-01,-2.705218553316183e-01
	-7.950276363816720e-05,-2.705218553316183e-04

 68	4.786300923226376e+01,0.000000000000000e+00
	1.000000000000000e+00,0.000000000000000e+00
	9.170611459754979e-01,-2.757897759482835e-01
	-8.293885402450212e-05,-2.757897759482835e-04

 69	4.897788193684454e+01,0.000000000000000e+00
	1.000000000000000e+00,0.000000000000000e+00
	9.134905054623115e-01,-2.811149264847425e-01
	-8.650949453768849e-05,-2.811149264847424e-04

 70	5.011872336272715e+01,0.000000000000000e+00
	1.000000000000000e+00,0.000000000000000e+00
	9.097812664019550e-01,-2.864948755318495e-01
	-9.021873359804503e-05,-2.864948755318495e-04

 71	5.128613839913640e+01,0.000000000000000e+00
	1.000000000000000e+00,0.000000000000000e+00
	9.059293653350784e-01,-2.919269606573885e-01
	-9.407063466492155e-05,-2.919269606573885e-04

 72	5.248074602497717e+01,0.000000000000000e+00
	1.000000000000000e+00,0.000000000000000e+00
	9.019307344097690e-01,-2.974082795364376e-01
	-9.806926559023101e-05,-2.974082795364375e-04

 73	5.370317963702517e+01,0.000000000000000e+00
	1.000000000000000e+00,0.000000000000000e+00
	8.977813129890500e-01,-3.029356813528368e-01
	-1.022186870109500e-04,-3.029356813528368e-04

 74	5.495408738576235e+01,0.000000000000000e+00
	1.000000000000000e+00,0.000000000000000e+00
	8.934770602461604e-01,-3.085057585524774e-01
	-1.065229397538397e-04,-3.085057585524774e-04

 75	5.623413251903480e+01,0.000000000000000e+00
	1.000000000000000e+00,0.000000000000000e+00
	8.890139687692376e-01,-3.141148390356728e-01
	-1.109860312307624e-04,-3.141148390356728e-04

 76	5.754399373371558e+01,0.000000000000000e+00
	1.000000000000000e+00,0.000000000000000e+00
	8.843880791909836e-01,-3.197589788823232e-01
	-1.156119208090164e-04,-3.197589788823232e-04

 77	5.888436553555878e+01,0.000000000000000e+00
	1.000000000000000e+00,0.000000000000000e+00
	8.795954958518781e-01,-3.254339557098594e-01
	-1.204045041481219e-04,-3.254339557098594e-04

 78	6.025595860743565e+01,0.000000000000000e+00
	1.000000000000000e+00,0.000000000000000e+00
	8.746324034974787e-01,-3.311352627699174e-01
	-1.253675965025212e-04,-3.311352627699175e-04

 79	6.165950018614809e+01,0.000000000000000e+00
	1.000000000000000e+00,0.000000000000000e+00
	8.694950850012781e-01,-3.368581038952429e-01
	-1.305049149987219e-04,-3.368581038952429e-04

 80	6.309573444801919e+01,0.000000000000000e+00
	1.000000000000000e+00,0.000000000000000e+00
	8.641799400944493e-01,-3.425973894132927e-01
	-1.358200599055507e-04,-3.425973894132927e-04

 81	6.456542290346542e+01,0.000000000000000e+00
	1.000000000000000e+00,0.000000000000000e+00
	8.586835050726016e-01,-3.483477331472575e-01
	-1.413164949273984e-04,-3.483477331472575e-04

 82	6.606934480075947e+01,0.000000000000000e+00
	1.000000000000000e+00,0.000000000000000e+00
	8.530024734374069e-01,-3.541034506285880e-01
	-1.469975265625932e-04,-3.541034506285880e-04

 83	6.760829753919803e+01,0.000000000000000e+00
	1.000000000000000e+00,0.000000000000000e+00
	8.471337174176646e-01,-3.598585586474122e-01
	-1.528662825823353e-04,-3.598585586474122e-04

 84	6.918309709189350e+01,0.000000000000000e+00
	1.000000000000000e+00,0.000000000000000e+00
	8.410743103001280e-01,-3.656067762682907e-01
	-1.589256896998719e-04,-3.656067762682907e-04

 85	7.079457843841364e+01,0.000000000000000e+00
	1.000000000000000e+00,0.000000000000000e+00
	8.348215494852833e-01,-3.713415274383866e-01
	-1.651784505147167e-04,-3.713415274383866e-04

 86	7.244359600749884e+01,0.000000000000000e+00
	1.000000000000000e+00,0.000000000000000e+00
	8.283729801673883e-01,-3.770559453131433e-01
	-1.716270198326117e-04,-3.770559453131433e-04

 87	7.413102413009157e+01,0.000000000000000e+00
	1.000000000000000e+00,0.000000000000000e+00
	8.217264195215778e-01,-3.827428784207824e-01
	-1.782735804784222e-04,-3.827428784207824e-04

 88	7.585775750291819e+01,0.000000000000000e+00
	1.000000000000000e+00,0.000000000000000e+00
	8.148799812639114e-01,-3.883948987811746e-01
	-1.851200187360886e-04,-3.883948987811746e-04

 89	7.762471166286898e+01,0.000000000000000e+00
	1.000000000000000e+00,0.000000000000000e+00
	8.078321004330872e-01,-3.940043120867508e-01
	-1.921678995669129e-04,-3.940043120867508e-04

 90	7.943282347242794e+01,0.000000000000000e+00
	1.000000000000000e+00,0.000000000000000e+00
	8.005815582254369e-01,-3.995631700429462e-01
	-1.994184417745631e-04,-3.995631700429462e-04

 91	8.128305161640971e+01,0.000000000000000e+00
	1.000000000000000e+00,0.000000000000000e+00
	7.931275066980124e-01,-4.050632849531129e-01
	-2.068724933019877e-04,-4.050632849531130e-04

 92	8.317637711026687e+01,0.000000000000000e+00
	1.000000000000000e+00,0.000000000000000e+00
	7.854694931384181e-01,-4.104962466177914e-01
	-2.145305068615819e-04,-4.104962466177914e-04

 93	8.511380382023741e+01,0.000000000000000e+00
	1.000000000000000e+00,0.000000000000000e+00
	7.776074838848505e-01,-4.158534416006709e-01
	-2.223925161151495e-04,-4.158534416006709e-04

 94	8.709635899560782e+01,0.000000000000000e+00
	1.000000000000000e+00,0.000000000000000e+00
	7.695418873659770e-01,-4.211260748934779e-01
	-2.304581126340231e-04,-4.211260748934779e-04

 95	8.912509381337429e+01,0.000000000000000e+00
	1.000000000000000e+00,0.000000000000000e+00
	7.612735761181860e-01,-4.263051939894872e-01
	-2.387264238818140e-04,-4.263051939894873e-04

 96	9.120108393559070e+01,0.000000000000000e+00
	1.000000000000000e+00,0.000000000000000e+00
	7.528039075277871e-01,-4.313817153504330e-01
	-2.471960924722128e-04,-4.313817153504330e-04

 97	9.332543007969882e+01,0.000000000000000e+00
	1.000000000000000e+00,0.000000000000000e+00
	7.441347430383235e-01,-4.363464532245127e-01
	-2.558652569616765e-04,-4.363464532245127e-04

 98	9.549925860214330e+01,0.000000000000000e+00
	1.000000000000000e+00,0.000000000000000e+00
	7.352684655587008e-01,-4.411901507441597e-01
	-2.647315344412992e-04,-4.411901507441597e-04

 99	9.772372209558077e+01,0.000000000000000e+00
	1.000000000000000e+00,0.000000000000000e+00
	7.262079948066908e-01,-4.459035132016074e-01
	-2.737920051933091e-04,-4.459035132016074e-04

 100	9.999999999999969e+01,0.000000000000000e+00
	1.000000000000000e+00,0.000000000000000e+00
	7.169568003248992e-01,-4.504772433683880e-01
	-2.830431996751009e-04,-4.504772433683880e-04

 101	1.023292992280751e+02,0.000000000000000e+00
	1.000000000000000e+00,0.000000000000000e+00
	7.075189119128144e-01,-4.549020786922407e-01
	-2.924810880871857e-04,-4.549020786922407e-04

 102	1.047128548050896e+02,0.000000000000000e+00
	1.000000000000000e+00,0.000000000000000e+00
	6.978989272293116e-01,-4.591688301719616e-01
	-3.021010727706884e-04,-4.591688301719616e-04

 103	1.071519305237603e+02,0.000000000000000e+00
	1.000000000000000e+00,0.000000000000000e+00
	6.881020163351564e-01,-4.632684226780933e-01
	-3.118979836648436e-04,-4.632684226780933e-04

 104	1.096478196143182e+02,0.000000000000000e+00
	1.000000000000000e+00,0.000000000000000e+00
	6.781339229647734e-01,-4.671919364556502e-01
	-3.218660770352266e-04,-4.671919364556502e-04

 105	1.122018454301960e+02,0.000000000000000e+00
	1.000000000000000e+00,0.000000000000000e+00
