Title: * second-order system step response (ω_n=5 rad/s, ζ=0.5)
Date: Tue Jun 30 09:59:45  2026
Command: ngspice-46, Build 
Plotname: Transient Analysis
Flags: real
No. Variables: 6
No. Points: 5145
Variables:
	0	time	time
	1	v(1)	voltage
	2	v(2)	voltage
	3	v(3)	voltage
	4	i(l1)	current
	5	i(v1)	current
Values:
 0	0.000000000000000e+00
	0.000000000000000e+00
	0.000000000000000e+00
	0.000000000000000e+00
	0.000000000000000e+00
	0.000000000000000e+00

 1	1.000000000000000e-11
	1.000000000000000e-02
	9.999999999500003e-03
	2.499999999875001e-23
	2.499999999875001e-12
	-2.499989798510072e-12

 2	1.084000000002800e-11
	1.084000000002800e-02
	1.083999999948247e-02
	2.729121759871863e-23
	2.727639999871721e-12
	-2.727635825539032e-12

 3	1.252000000008400e-11
	1.252000000008400e-02
	1.251999999944036e-02
	3.228572319866435e-23
	3.218199999865453e-12
	-3.218196542587037e-12

 4	1.588000000019600e-11
	1.588000000019600e-02
	1.587999999931380e-02
	4.510277919861840e-23
	4.410999999852888e-12
	-4.410999343562594e-12

 5	2.260000000042001e-11
	2.260000000042000e-02
	2.259999999889134e-02
	8.560529439883535e-23
	7.643319999809864e-12
	-7.643299188009323e-12

 6	3.604000000086801e-11
	3.604000000086801e-02
	3.603999999736904e-02
	2.545337295998958e-22
	1.749483999950999e-11
	-1.749483197199808e-11

 7	6.292000000176402e-11
	6.292000000176401e-02
	6.291999999161493e-02
	1.171682555182446e-21
	5.074539999691697e-11
	-5.074538012017626e-11

 8	1.166800000035560e-10
	1.166800000035560e-01
	1.166799999692687e-01
	7.143934714617349e-21
	1.714365999746539e-10
	-1.714365732707890e-10

 9	2.242000000071401e-10
	2.242000000071400e-01
	2.241999998812242e-01
	5.020655056254617e-20
	6.295793197889879e-10
	-6.295792498445252e-10

 10	4.392400000143081e-10
	4.392400000143081e-01
	4.392399995317269e-01
	3.773345762720007e-19
	2.412906038270445e-09
	-2.412905875104343e-09

 11	7.196200000071541e-10
	7.196200000071541e-01
	7.196199987122701e-01
	1.623248900044322e-18
	6.474420617012463e-09
	-6.474420000124326e-09

 12	1.000000000000000e-09
	1.000000000000000e+00
	9.999999974997482e-01
	4.283449397248739e-18
	1.250125879858276e-08
	-1.250125891694154e-08

 13	1.056075999998569e-09
	1.000000000000000e+00
	9.999999972193683e-01
	5.063082929797574e-18
	1.390315879464882e-08
	-1.390315862437319e-08

 14	1.168227999995708e-09
	1.000000000000000e+00
	9.999999966586083e-01
	6.779575883205950e-18
	1.670695878599481e-08
	-1.670695859434801e-08

 15	1.392531999989985e-09
	1.000000000000000e+00
	9.999999955370883e-01
	1.115591711935794e-17
	2.231455876397001e-08
	-2.231455853429765e-08

 16	1.841139999978538e-09
	1.000000000000000e+00
	9.999999932940482e-01
	2.368202090371293e-17
	3.352975870105334e-08
	-3.352975896930843e-08

 17	2.738355999955645e-09
	1.000000000000000e+00
	9.999999888079683e-01
	6.382791367830727e-17
	5.596015849975155e-08
	-5.596015872910698e-08

 18	4.532787999909860e-09
	1.000000000000000e+00
	9.999999798358085e-01
	2.044944397124760e-16
	1.008209577952743e-07
	-1.008209576935926e-07

 19	8.121651999818288e-09
	1.000000000000000e+00
	9.999999618914890e-01
	7.273264510122748e-16
	1.905425551788249e-07
	-1.905425550674522e-07

 20	1.529937999963515e-08
	1.000000000000000e+00
	9.999999260028509e-01
	2.738986288870043e-15
	3.699857451159469e-07
	-3.699857453742794e-07

 21	2.965483599926886e-08
	1.000000000000000e+00
	9.999998542255789e-01
	1.062628905227687e-14
	7.288721056702734e-07
	-7.288721054488079e-07

 22	5.836574799853629e-08
	1.000000000000000e+00
	9.999997106710501e-01
	4.185682554312460e-14
	1.446644749499258e-06
	-1.446644749547588e-06

 23	1.157875719970712e-07
	1.000000000000000e+00
	9.999994235620544e-01
	1.661416112871075e-13
	2.882189728038551e-06
	-2.882189727992923e-06

 24	2.306312199941409e-07
	1.000000000000000e+00
	9.999988493443103e-01
	6.620059450734320e-13
	5.753278448642435e-06
	-5.753278448650256e-06

 25	4.603185159882803e-07
	1.000000000000000e+00
	9.999977009098112e-01
	2.642912951833189e-12
	1.149545094395140e-05
	-1.149545094392135e-05

 26	9.196931079765593e-07
	1.000000000000000e+00
	9.999954040447698e-01
	1.056143464205052e-11
	2.297977615097410e-05
	-2.297977615084434e-05

 27	1.838442291953117e-06
	1.000000000000000e+00
	9.999908103305138e-01
	4.222526328887151e-11
	4.594834743063859e-05
	-4.594834743076870e-05

 28	3.675940659906233e-06
	1.000000000000000e+00
	9.999816229653095e-01
	1.688596981248195e-10
	9.188517345244396e-05
	-9.188517345271041e-05

 29	7.350937395812464e-06
	1.000000000000000e+00
	9.999632484881308e-01
	6.753527697800246e-10
	1.837575593459605e-04
	-1.837575593460761e-04

 30	1.470093086762493e-05
	1.000000000000000e+00
	9.999265005466935e-01
	2.701212455536372e-09
	3.674972665326215e-04
	-3.674972665324017e-04

 31	2.940091781124985e-05
	1.000000000000000e+00
	9.998530087154991e-01
	1.080423987293502e-08
	7.349564225045328e-04
	-7.349564225045402e-04

 32	5.880089169849970e-05
	1.000000000000000e+00
	9.997060412598312e-01
	4.321403790011308e-08
	1.469793700843944e-03
	-1.469793700843991e-03

 33	1.176008394729994e-04
	1.000000000000000e+00
	9.994121711753751e-01
	1.728366947953027e-07
	2.939144123124813e-03
	-2.939144123124682e-03

 34	2.352007350219988e-04
	1.000000000000000e+00
	9.988246903139181e-01
	6.911989565391838e-07
	5.876548430409799e-03
	-5.876548430409634e-03

 35	4.704005261199976e-04
	1.000000000000000e+00
	9.976507658198177e-01
	2.763628909191913e-06
	1.174617090091160e-02
	-1.174617090091146e-02

 36	9.408001083159952e-04
	1.000000000000000e+00
	9.953070657307607e-01
	1.104521165009637e-05
	2.346467134619665e-02
	-2.346467134619667e-02

 37	1.881599272707990e-03
	1.000000000000000e+00
	9.906362608918786e-01
	4.410647806897688e-05
	4.681869554060710e-02
	-4.681869554060691e-02

 38	2.881599272707990e-03
	1.000000000000000e+00
	9.856957991986670e-01
	1.032763278426129e-04
	7.152100400666503e-02
	-7.152100400666495e-02

 39	3.881599272707990e-03
	1.000000000000000e+00
	9.807803347695484e-01
	1.870859929220745e-04
	9.609832615225815e-02
	-9.609832615225800e-02

 40	4.881599272707990e-03
	1.000000000000000e+00
	9.758898655100622e-01
	2.954104922230480e-04
	1.205506724496889e-01
	-1.205506724496891e-01

 41	5.881599272707990e-03
	1.000000000000000e+00
	9.710243887128771e-01
	4.281248566656996e-04
	1.448780564356145e-01
	-1.448780564356145e-01

 42	6.881599272707990e-03
	1.000000000000000e+00
	9.661839010609149e-01
	5.851041322312196e-04
	1.690804946954257e-01
	-1.690804946954255e-01

 43	7.881599272707991e-03
	1.000000000000000e+00
	9.613683986304745e-01
	7.662233830027462e-04
	1.931580068476276e-01
	-1.931580068476274e-01

 44	8.881599272707992e-03
	1.000000000000000e+00
	9.565778768943554e-01
	9.713576941906714e-04
	2.171106155282230e-01
	-2.171106155282232e-01

 45	9.881599272707993e-03
	1.000000000000000e+00
	9.518123307249804e-01
	1.200382175142332e-03
	2.409383463750980e-01
	-2.409383463750980e-01

 46	1.088159927270799e-02
	1.000000000000000e+00
	9.470717543975179e-01
	1.453171962336086e-03
	2.646412280124107e-01
	-2.646412280124105e-01

 47	1.188159927270799e-02
	1.000000000000000e+00
	9.423561415930033e-01
	1.729602222359782e-03
	2.882192920349835e-01
	-2.882192920349835e-01

 48	1.288159927270800e-02
	1.000000000000000e+00
	9.376654854014602e-01
	2.029548154873623e-03
	3.116725729926988e-01
	-3.116725729926989e-01

 49	1.388159927270800e-02
	1.000000000000000e+00
	9.329997783250201e-01
	2.352884995557422e-03
	3.350011083748994e-01
	-3.350011083748994e-01

 50	1.488159927270800e-02
	1.000000000000000e+00
	9.283590122810415e-01
	2.699488019042267e-03
	3.582049385947926e-01
	-3.582049385947927e-01

 51	1.588159927270800e-02
	1.000000000000000e+00
	9.237431786052280e-01
	3.069232541826593e-03
	3.812841069738600e-01
	-3.812841069738598e-01

 52	1.688159927270800e-02
	1.000000000000000e+00
	9.191522680547456e-01
	3.461993925176658e-03
	4.042386597262720e-01
	-4.042386597262720e-01

 53	1.788159927270800e-02
	1.000000000000000e+00
	9.145862708113384e-01
	3.877647578011447e-03
	4.270686459433081e-01
	-4.270686459433082e-01

 54	1.888159927270800e-02
	1.000000000000000e+00
	9.100451764844434e-01
	4.316068959771991e-03
	4.497741175777830e-01
	-4.497741175777831e-01

 55	1.988159927270800e-02
	1.000000000000000e+00
	9.055289741143042e-01
	4.777133583275121e-03
	4.723551294284791e-01
	-4.723551294284789e-01

 56	2.088159927270800e-02
	1.000000000000000e+00
	9.010376521750828e-01
	5.260717017551653e-03
	4.948117391245859e-01
	-4.948117391245860e-01

 57	2.188159927270800e-02
	1.000000000000000e+00
	8.965711985779707e-01
	5.766694890669018e-03
	5.171440071101462e-01
	-5.171440071101463e-01

 58	2.288159927270800e-02
	1.000000000000000e+00
	8.921296006742981e-01
	6.294942892538345e-03
	5.393519966285093e-01
	-5.393519966285093e-01

 59	2.388159927270801e-02
	1.000000000000000e+00
	8.877128452586415e-01
	6.845336777705996e-03
	5.614357737067929e-01
	-5.614357737067927e-01

 60	2.488159927270801e-02
	1.000000000000000e+00
	8.833209185719296e-01
	7.417752368129567e-03
	5.833954071403519e-01
	-5.833954071403519e-01

 61	2.588159927270801e-02
	1.000000000000000e+00
	8.789538063045486e-01
	8.012065555938370e-03
	6.052309684772570e-01
	-6.052309684772572e-01

 62	2.688159927270801e-02
	1.000000000000000e+00
	8.746114935994439e-01
	8.628152306178387e-03
	6.269425320027804e-01
	-6.269425320027805e-01

 63	2.788159927270801e-02
	1.000000000000000e+00
	8.702939650552216e-01
	9.265888659541720e-03
	6.485301747238922e-01
	-6.485301747238920e-01

 64	2.888159927270801e-02
	1.000000000000000e+00
	8.660012047292469e-01
	9.925150735080547e-03
	6.699939763537652e-01
	-6.699939763537655e-01

 65	2.988159927270801e-02
	1.000000000000000e+00
	8.617331961407420e-01
	1.060581473290557e-02
	6.913340192962902e-01
	-6.913340192962902e-01

 66	3.088159927270801e-02
	1.000000000000000e+00
	8.574899222738799e-01
	1.130775693686902e-02
	7.125503886306007e-01
	-7.125503886306006e-01

 67	3.188159927270801e-02
	1.000000000000000e+00
	8.532713655808782e-01
	1.203085371723212e-02
	7.336431720956087e-01
	-7.336431720956088e-01

 68	3.288159927270801e-02
	1.000000000000000e+00
	8.490775079850897e-01
	1.277498153331719e-02
	7.546124600745514e-01
	-7.546124600745513e-01

 69	3.388159927270801e-02
	1.000000000000000e+00
	8.449083308840905e-01
	1.354001693614424e-02
	7.754583455795478e-01
	-7.754583455795477e-01

 70	3.488159927270802e-02
	1.000000000000000e+00
	8.407638151527663e-01
	1.432583657105209e-02
	7.961809242361684e-01
	-7.961809242361684e-01

 71	3.588159927270802e-02
	1.000000000000000e+00
	8.366439411463968e-01
	1.513231718030418e-02
	8.167802942680156e-01
	-8.167802942680158e-01

 72	3.688159927270802e-02
	1.000000000000000e+00
	8.325486887037366e-01
	1.595933560567885e-02
	8.372565564813174e-01
	-8.372565564813172e-01

 73	3.788159927270802e-02
	1.000000000000000e+00
	8.284780371500938e-01
	1.680676879104427e-02
	8.576098142495311e-01
	-8.576098142495309e-01

 74	3.888159927270802e-02
	1.000000000000000e+00
	8.244319653004074e-01
	1.767449378491802e-02
	8.778401734979628e-01
	-8.778401734979630e-01

 75	3.988159927270802e-02
	1.000000000000000e+00
	8.204104514623204e-01
	1.856238774301119e-02
	8.979477426883979e-01
	-8.979477426883981e-01

 76	4.088159927270802e-02
	1.000000000000000e+00
	8.164134734392510e-01
	1.947032793075726e-02
	9.179326328037452e-01
	-9.179326328037452e-01

 77	4.188159927270802e-02
	1.000000000000000e+00
	8.124410085334607e-01
	2.039819172582548e-02
	9.377949573326965e-01
	-9.377949573326966e-01

 78	4.288159927270802e-02
	1.000000000000000e+00
	8.084930335491204e-01
	2.134585662061902e-02
	9.575348322543979e-01
	-9.575348322543981e-01

 79	4.388159927270802e-02
	1.000000000000000e+00
	8.045695247953726e-01
	2.231320022475779e-02
	9.771523760231369e-01
	-9.771523760231371e-01

 80	4.488159927270802e-02
	1.000000000000000e+00
	8.006704580893915e-01
	2.330010026754588e-02
	9.966477095530424e-01
	-9.966477095530424e-01

 81	4.588159927270802e-02
	1.000000000000000e+00
	7.967958087594395e-01
	2.430643460042380e-02
	1.016020956202803e+00
	-1.016020956202803e+00

 82	4.688159927270803e-02
	1.000000000000000e+00
	7.929455516479207e-01
	2.533208119940540e-02
	1.035272241760397e+00
	-1.035272241760397e+00

 83	4.788159927270803e-02
	1.000000000000000e+00
	7.891196611144321e-01
	2.637691816749951e-02
	1.054401694427839e+00
	-1.054401694427840e+00

 84	4.888159927270803e-02
	1.000000000000000e+00
	7.853181110388107e-01
	2.744082373711639e-02
	1.073409444805947e+00
	-1.073409444805947e+00

 85	4.988159927270803e-02
	1.000000000000000e+00
	7.815408748241772e-01
	2.852367627245891e-02
	1.092295625879114e+00
	-1.092295625879114e+00

 86	5.088159927270803e-02
	1.000000000000000e+00
	7.777879253999778e-01
	2.962535427189851e-02
	1.111060373000111e+00
	-1.111060373000111e+00

 87	5.188159927270803e-02
	1.000000000000000e+00
	7.740592352250210e-01
	3.074573637033601e-02
	1.129703823874895e+00
	-1.129703823874895e+00

 88	5.288159927270803e-02
	1.000000000000000e+00
	7.703547762905119e-01
	3.188470134154717e-02
	1.148226118547441e+00
	-1.148226118547441e+00

 89	5.388159927270803e-02
	1.000000000000000e+00
	7.666745201230830e-01
	3.304212810051319e-02
	1.166627399384585e+00
	-1.166627399384585e+00

 90	5.488159927270803e-02
	1.000000000000000e+00
	7.630184377878214e-01
	3.421789570573592e-02
	1.184907811060893e+00
	-1.184907811060893e+00

 91	5.588159927270803e-02
	1.000000000000000e+00
	7.593864998912918e-01
	3.541188336153812e-02
	1.203067500543541e+00
	-1.203067500543541e+00

 92	5.688159927270803e-02
	1.000000000000000e+00
	7.557786765845570e-01
	3.662397042034849e-02
	1.221106617077215e+00
	-1.221106617077215e+00

 93	5.788159927270804e-02
	1.000000000000000e+00
	7.521949375661934e-01
	3.785403638497161e-02
	1.239025312169033e+00
	-1.239025312169033e+00

 94	5.888159927270804e-02
	1.000000000000000e+00
	7.486352520853042e-01
	3.910196091084286e-02
	1.256823739573479e+00
	-1.256823739573479e+00

 95	5.988159927270804e-02
	1.000000000000000e+00
	7.450995889445274e-01
	4.036762380826826e-02
	1.274502055277363e+00
	-1.274502055277363e+00

 96	6.088159927270804e-02
	1.000000000000000e+00
	7.415879165030408e-01
	4.165090504464933e-02
	1.292060417484796e+00
	-1.292060417484796e+00

 97	6.188159927270804e-02
	1.000000000000000e+00
	7.381002026795628e-01
	4.295168474669282e-02
	1.309498986602186e+00
	-1.309498986602186e+00

 98	6.288159927270803e-02
	1.000000000000000e+00
	7.346364149553487e-01
	4.426984320260554e-02
	1.326817925223256e+00
	-1.326817925223256e+00

 99	6.388159927270803e-02
	1.000000000000000e+00
	7.311965203771845e-01
	4.560526086427420e-02
	1.344017398114077e+00
	-1.344017398114077e+00

 100	6.488159927270803e-02
	1.000000000000000e+00
	7.277804855603750e-01
	4.695781834943028e-02
	1.361097572198125e+00
	-1.361097572198125e+00

 101	6.588159927270804e-02
	1.000000000000000e+00
	7.243882766917279e-01
	4.832739644380001e-02
	1.378058616541361e+00
	-1.378058616541360e+00

 102	6.688159927270804e-02
	1.000000000000000e+00
	7.210198595325349e-01
	4.971387610323934e-02
	1.394900702337326e+00
	-1.394900702337325e+00

 103	6.788159927270804e-02
	1.000000000000000e+00
	7.176751994215473e-01
	5.111713845585413e-02
	1.411624002892263e+00
	-1.411624002892263e+00

 104	6.888159927270804e-02
	1.000000000000000e+00
	7.143542612779485e-01
	5.253706480410539e-02
	1.428228693610257e+00
	-1.428228693610257e+00

 105	6.988159927270804e-02
	1.000000000000000e+00
	7.110570096043205e-01
	5.397353662689971e-02
	1.444714951978397e+00
	-1.444714951978397e+00

 106	7.088159927270804e-02
	1.000000000000000e+00
	7.077834084896072e-01
	5.542643558166488e-02
	1.461082957551964e+00
	-1.461082957551964e+00

 107	7.188159927270804e-02
	1.000000000000000e+00
	7.045334216120732e-01
	5.689564350641067e-02
	1.477332891939634e+00
	-1.477332891939634e+00

 108	7.288159927270804e-02
	1.000000000000000e+00
	7.013070122422579e-01
	5.838104242177484e-02
	1.493464938788711e+00
	-1.493464938788711e+00

 109	7.388159927270804e-02
	1.000000000000000e+00
	6.981041432459245e-01
	5.988251453305437e-02
	1.509479283770377e+00
	-1.509479283770377e+00

 110	7.488159927270804e-02
	1.000000000000000e+00
	6.949247770870054e-01
	6.139994223222203e-02
	1.525376114564973e+00
	-1.525376114564973e+00

 111	7.588159927270804e-02
	1.000000000000000e+00
	6.917688758305419e-01
	6.293320809992814e-02
	1.541155620847290e+00
	-1.541155620847290e+00

 112	7.688159927270805e-02
	1.000000000000000e+00
	6.886364011456202e-01
	6.448219490748773e-02
	1.556817994271899e+00
	-1.556817994271899e+00

 113	7.788159927270805e-02
	1.000000000000000e+00
	6.855273143083013e-01
	6.604678561885292e-02
	1.572363428458494e+00
	-1.572363428458494e+00

 114	7.888159927270805e-02
	1.000000000000000e+00
	6.824415762045476e-01
	6.762686339257079e-02
	1.587792118977262e+00
	-1.587792118977262e+00

 115	7.988159927270805e-02
	1.000000000000000e+00
	6.793791473331442e-01
	6.922231158372655e-02
	1.603104263334279e+00
	-1.603104263334279e+00

 116	8.088159927270805e-02
	1.000000000000000e+00
	6.763399878086138e-01
	7.083301374587214e-02
	1.618300060956931e+00
	-1.618300060956931e+00

 117	8.188159927270805e-02
	1.000000000000000e+00
	6.733240573641291e-01
	7.245885363294027e-02
	1.633379713179354e+00
	-1.633379713179354e+00

 118	8.288159927270805e-02
	1.000000000000000e+00
	6.703313153544179e-01
	7.409971520114389e-02
	1.648343423227910e+00
	-1.648343423227910e+00

 119	8.388159927270805e-02
	1.000000000000000e+00
	6.673617207586653e-01
	7.575548261086117e-02
	1.663191396206673e+00
	-1.663191396206674e+00

 120	8.488159927270805e-02
	1.000000000000000e+00
	6.644152321834086e-01
	7.742604022850597e-02
	1.677923839082957e+00
	-1.677923839082957e+00

 121	8.588159927270805e-02
	1.000000000000000e+00
	6.614918078654288e-01
	7.911127262838384e-02
	1.692540960672856e+00
	-1.692540960672856e+00

 122	8.688159927270805e-02
	1.000000000000000e+00
	6.585914056746360e-01
	8.081106459453365e-02
	1.707042971626820e+00
	-1.707042971626820e+00

 123	8.788159927270806e-02
	1.000000000000000e+00
	6.557139831169498e-01
	8.252530112255467e-02
	1.721430084415251e+00
	-1.721430084415251e+00

 124	8.888159927270806e-02
	1.000000000000000e+00
	6.528594973371744e-01
	8.425386742141935e-02
	1.735702513314128e+00
	-1.735702513314128e+00

 125	8.988159927270806e-02
	1.000000000000000e+00
	6.500279051218686e-01
	8.599664891527173e-02
	1.749860474390657e+00
	-1.749860474390657e+00

 126	9.088159927270806e-02
	1.000000000000000e+00
	6.472191629022096e-01
	8.775353124521151e-02
	1.763904185488952e+00
	-1.763904185488952e+00

 127	9.188159927270806e-02
	1.000000000000000e+00
	6.444332267568528e-01
	8.952440027106384e-02
	1.777833866215736e+00
	-1.777833866215736e+00

 128	9.288159927270806e-02
	1.000000000000000e+00
	6.416700524147843e-01
	9.130914207313473e-02
	1.791649737926079e+00
	-1.791649737926079e+00

 129	9.388159927270806e-02
	1.000000000000000e+00
	6.389295952581696e-01
	9.310764295395232e-02
	1.805352023709152e+00
	-1.805352023709152e+00

 130	9.488159927270806e-02
	1.000000000000000e+00
	6.362118103251961e-01
	9.491978943999388e-02
	1.818940948374019e+00
	-1.818940948374019e+00

 131	9.588159927270806e-02
	1.000000000000000e+00
	6.335166523129094e-01
	9.674546828339858e-02
	1.832416738435453e+00
	-1.832416738435453e+00

 132	9.688159927270806e-02
	1.000000000000000e+00
	6.308440755800447e-01
	9.858456646366617e-02
	1.845779622099776e+00
	-1.845779622099776e+00

 133	9.788159927270806e-02
	1.000000000000000e+00
	6.281940341498525e-01
	1.004369711893414e-01
	1.859029829250737e+00
	-1.859029829250737e+00

 134	9.888159927270807e-02
	1.000000000000000e+00
	6.255664817129182e-01
	1.023025698996845e-01
	1.872167591435409e+00
	-1.872167591435409e+00

 135	9.988159927270807e-02
	1.000000000000000e+00
	6.229613716299761e-01
	1.041812502663272e-01
	1.885193141850120e+00
	-1.885193141850119e+00

 136	1.008815992727081e-01
	1.000000000000000e+00
	6.203786569347176e-01
	1.060729001949154e-01
	1.898106715326412e+00
	-1.898106715326412e+00

 137	1.018815992727081e-01
	1.000000000000000e+00
