Title: * rc low-pass filter
Date: Mon Jun 29 22:00:02  2026
Command: ngspice-46, Build 
Plotname: AC Analysis
Flags: complex
No. Variables: 4
No. Points: 401
Variables:
	0	frequency	frequency grid=3
	1	v(1)	voltage
	2	v(2)	voltage
	3	i(v1)	current
Values:
 0	1.000000000000000e+01,0.000000000000000e+00
	1.000000000000000e+00,0.000000000000000e+00
	9.990140126903603e-01,-3.138495083101296e-02
	-1.971974619279296e-06,-6.276990166202592e-05

 1	1.023292992280754e+01,0.000000000000000e+00
	1.000000000000000e+00,0.000000000000000e+00
	9.989675925141266e-01,-3.211450794666952e-02
	-2.064814971746744e-06,-6.422901589333904e-05

 2	1.047128548050899e+01,0.000000000000000e+00
	1.000000000000000e+00,0.000000000000000e+00
	9.989189892458347e-01,-3.286095205429809e-02
	-2.162021508330704e-06,-6.572190410859619e-05

 3	1.071519305237606e+01,0.000000000000000e+00
	1.000000000000000e+00,0.000000000000000e+00
	9.988681004448469e-01,-3.362466889874352e-02
	-2.263799110306317e-06,-6.724933779748704e-05

 4	1.096478196143185e+01,0.000000000000000e+00
	1.000000000000000e+00,0.000000000000000e+00
	9.988148188855019e-01,-3.440605266844605e-02
	-2.370362228996167e-06,-6.881210533689211e-05

 5	1.122018454301963e+01,0.000000000000000e+00
	1.000000000000000e+00,0.000000000000000e+00
	9.987590323357208e-01,-3.520550615366077e-02
	-2.481935328558452e-06,-7.041101230732154e-05

 6	1.148153621496883e+01,0.000000000000000e+00
	1.000000000000000e+00,0.000000000000000e+00
	9.987006233255754e-01,-3.602344090564551e-02
	-2.598753348849372e-06,-7.204688181129103e-05

 7	1.174897554939530e+01,0.000000000000000e+00
	1.000000000000000e+00,0.000000000000000e+00
	9.986394689053827e-01,-3.686027739664946e-02
	-2.721062189234465e-06,-7.372055479329893e-05

 8	1.202264434617413e+01,0.000000000000000e+00
	1.000000000000000e+00,0.000000000000000e+00
	9.985754403928707e-01,-3.771644518051744e-02
	-2.849119214258771e-06,-7.543289036103489e-05

 9	1.230268770812381e+01,0.000000000000000e+00
	1.000000000000000e+00,0.000000000000000e+00
	9.985084031089505e-01,-3.859238305370730e-02
	-2.983193782099113e-06,-7.718476610741459e-05

 10	1.258925411794167e+01,0.000000000000000e+00
	1.000000000000000e+00,0.000000000000000e+00
	9.984382161016019e-01,-3.948853921649734e-02
	-3.123567796796400e-06,-7.897707843299469e-05

 11	1.288249551693134e+01,0.000000000000000e+00
	1.000000000000000e+00,0.000000000000000e+00
	9.983647318573710e-01,-4.040537143414014e-02
	-3.270536285258051e-06,-8.081074286828028e-05

 12	1.318256738556407e+01,0.000000000000000e+00
	1.000000000000000e+00,0.000000000000000e+00
	9.982877959999530e-01,-4.134334719769619e-02
	-3.424408000093915e-06,-8.268669439539238e-05

 13	1.348962882591653e+01,0.000000000000000e+00
	1.000000000000000e+00,0.000000000000000e+00
	9.982072469753179e-01,-4.230294388425670e-02
	-3.585506049364265e-06,-8.460588776851340e-05

 14	1.380384264602884e+01,0.000000000000000e+00
	1.000000000000000e+00,0.000000000000000e+00
	9.981229157228143e-01,-4.328464891623856e-02
	-3.754168554371325e-06,-8.656929783247712e-05

 15	1.412537544622754e+01,0.000000000000000e+00
	1.000000000000000e+00,0.000000000000000e+00
	9.980346253316703e-01,-4.428895991940690e-02
	-3.930749336659208e-06,-8.857791983881380e-05

 16	1.445439770745927e+01,0.000000000000000e+00
	1.000000000000000e+00,0.000000000000000e+00
	9.979421906822877e-01,-4.531638487925006e-02
	-4.115618635424419e-06,-9.063276975850013e-05

 17	1.479108388168207e+01,0.000000000000000e+00
	1.000000000000000e+00,0.000000000000000e+00
	9.978454180717060e-01,-4.636744229530090e-02
	-4.309163856588104e-06,-9.273488459060182e-05

 18	1.513561248436208e+01,0.000000000000000e+00
	1.000000000000000e+00,0.000000000000000e+00
	9.977441048225943e-01,-4.744266133296281e-02
	-4.511790354811123e-06,-9.488532266592563e-05

 19	1.548816618912481e+01,0.000000000000000e+00
	1.000000000000000e+00,0.000000000000000e+00
	9.976380388751009e-01,-4.854258197236275e-02
	-4.723922249798111e-06,-9.708516394472551e-05

 20	1.584893192461113e+01,0.000000000000000e+00
	1.000000000000000e+00,0.000000000000000e+00
	9.975269983608834e-01,-4.966775515371473e-02
	-4.946003278233184e-06,-9.933551030742946e-05

 21	1.621810097358929e+01,0.000000000000000e+00
	1.000000000000000e+00,0.000000000000000e+00
	9.974107511586071e-01,-5.081874291863439e-02
	-5.178497682785822e-06,-1.016374858372688e-04

 22	1.659586907437560e+01,0.000000000000000e+00
	1.000000000000000e+00,0.000000000000000e+00
	9.972890544301843e-01,-5.199611854680121e-02
	-5.421891139631516e-06,-1.039922370936024e-04

 23	1.698243652461744e+01,0.000000000000000e+00
	1.000000000000000e+00,0.000000000000000e+00
	9.971616541370137e-01,-5.320046668731680e-02
	-5.676691725972540e-06,-1.064009333746336e-04

 24	1.737800828749375e+01,0.000000000000000e+00
	1.000000000000000e+00,0.000000000000000e+00
	9.970282845354423e-01,-5.443238348405688e-02
	-5.943430929115315e-06,-1.088647669681138e-04

 25	1.778279410038922e+01,0.000000000000000e+00
	1.000000000000000e+00,0.000000000000000e+00
	9.968886676506714e-01,-5.569247669425973e-02
	-6.222664698656965e-06,-1.113849533885195e-04

 26	1.819700858609983e+01,0.000000000000000e+00
	1.000000000000000e+00,0.000000000000000e+00
	9.967425127282941e-01,-5.698136579953673e-02
	-6.514974543411680e-06,-1.139627315990735e-04

 27	1.862087136662867e+01,0.000000000000000e+00
	1.000000000000000e+00,0.000000000000000e+00
	9.965895156626411e-01,-5.829968210842770e-02
	-6.820968674717959e-06,-1.165993642168554e-04

 28	1.905460717963246e+01,0.000000000000000e+00
	1.000000000000000e+00,0.000000000000000e+00
	9.964293584010904e-01,-5.964806884955883e-02
	-7.141283197819367e-06,-1.192961376991177e-04

 29	1.949844599758044e+01,0.000000000000000e+00
	1.000000000000000e+00,0.000000000000000e+00
	9.962617083234850e-01,-6.102718125439083e-02
	-7.476583353030128e-06,-1.220543625087817e-04

 30	1.995262314968879e+01,0.000000000000000e+00
	1.000000000000000e+00,0.000000000000000e+00
	9.960862175957773e-01,-6.243768662846991e-02
	-7.827564808445420e-06,-1.248753732569398e-04

 31	2.041737944669528e+01,0.000000000000000e+00
	1.000000000000000e+00,0.000000000000000e+00
	9.959025224970190e-01,-6.388026441001593e-02
	-8.194955005961894e-06,-1.277605288200319e-04

 32	2.089296130854038e+01,0.000000000000000e+00
	1.000000000000000e+00,0.000000000000000e+00
	9.957102427187907e-01,-6.535560621459710e-02
	-8.579514562418594e-06,-1.307112124291942e-04

 33	2.137962089502231e+01,0.000000000000000e+00
	1.000000000000000e+00,0.000000000000000e+00
	9.955089806361659e-01,-6.686441586455241e-02
	-8.982038727668035e-06,-1.337288317291048e-04

 34	2.187761623949551e+01,0.000000000000000e+00
	1.000000000000000e+00,0.000000000000000e+00
	9.952983205492872e-01,-6.840740940172700e-02
	-9.403358901425348e-06,-1.368148188034540e-04

 35	2.238721138568338e+01,0.000000000000000e+00
	1.000000000000000e+00,0.000000000000000e+00
	9.950778278946403e-01,-6.998531508198688e-02
	-9.844344210719561e-06,-1.399706301639738e-04

 36	2.290867652767771e+01,0.000000000000000e+00
	1.000000000000000e+00,0.000000000000000e+00
	9.948470484250956e-01,-7.159887334987212e-02
	-1.030590314980880e-05,-1.431977466997443e-04

 37	2.344228815319920e+01,0.000000000000000e+00
	1.000000000000000e+00,0.000000000000000e+00
	9.946055073578058e-01,-7.324883679163557e-02
	-1.078898528438822e-05,-1.464976735832712e-04

 38	2.398832919019489e+01,0.000000000000000e+00
	1.000000000000000e+00,0.000000000000000e+00
	9.943527084890383e-01,-7.493597006479531e-02
	-1.129458302192351e-05,-1.498719401295906e-04

 39	2.454708915685028e+01,0.000000000000000e+00
	1.000000000000000e+00,0.000000000000000e+00
	9.940881332750503e-01,-7.666104980220417e-02
	-1.182373344989955e-05,-1.533220996044084e-04

 40	2.511886431509578e+01,0.000000000000000e+00
	1.000000000000000e+00,0.000000000000000e+00
	9.938112398781133e-01,-7.842486448850562e-02
	-1.237752024377346e-05,-1.568497289770112e-04

 41	2.570395782768862e+01,0.000000000000000e+00
	1.000000000000000e+00,0.000000000000000e+00
	9.935214621768308e-01,-8.022821430670736e-02
	-1.295707564633822e-05,-1.604564286134147e-04

 42	2.630267991895380e+01,0.000000000000000e+00
	1.000000000000000e+00,0.000000000000000e+00
	9.932182087399166e-01,-8.207191095245660e-02
	-1.356358252016694e-05,-1.641438219049132e-04

 43	2.691534803926913e+01,0.000000000000000e+00
	1.000000000000000e+00,0.000000000000000e+00
	9.929008617626359e-01,-8.395677741344520e-02
	-1.419827647472808e-05,-1.679135548268904e-04

 44	2.754228703338164e+01,0.000000000000000e+00
	1.000000000000000e+00,0.000000000000000e+00
	9.925687759651604e-01,-8.588364771121217e-02
	-1.486244806967948e-05,-1.717672954224243e-04

 45	2.818382931264451e+01,0.000000000000000e+00
	1.000000000000000e+00,0.000000000000000e+00
	9.922212774521407e-01,-8.785336660243909e-02
	-1.555744509571834e-05,-1.757067332048782e-04

 46	2.884031503126603e+01,0.000000000000000e+00
	1.000000000000000e+00,0.000000000000000e+00
	9.918576625328656e-01,-8.986678923665700e-02
	-1.628467493426872e-05,-1.797335784733140e-04

 47	2.951209226666383e+01,0.000000000000000e+00
	1.000000000000000e+00,0.000000000000000e+00
	9.914771965014466e-01,-9.192478076709486e-02
	-1.704560699710691e-05,-1.838495615341897e-04

 48	3.019951720402014e+01,0.000000000000000e+00
	1.000000000000000e+00,0.000000000000000e+00
	9.910791123765655e-01,-9.402821591120668e-02
	-1.784177524686908e-05,-1.880564318224134e-04

 49	3.090295432513588e+01,0.000000000000000e+00
	1.000000000000000e+00,0.000000000000000e+00
	9.906626096004103e-01,-9.617797845720938e-02
	-1.867478079917943e-05,-1.923559569144188e-04

 50	3.162277660168376e+01,0.000000000000000e+00
	1.000000000000000e+00,0.000000000000000e+00
	9.902268526965493e-01,-9.837496071275334e-02
	-1.954629460690143e-05,-1.967499214255067e-04

 51	3.235936569296280e+01,0.000000000000000e+00
	1.000000000000000e+00,0.000000000000000e+00
	9.897709698866246e-01,-1.006200628916273e-01
	-2.045806022675078e-05,-2.012401257832546e-04

 52	3.311311214825908e+01,0.000000000000000e+00
	1.000000000000000e+00,0.000000000000000e+00
	9.892940516658895e-01,-1.029141924341726e-01
	-2.141189666822127e-05,-2.058283848683451e-04

 53	3.388441561392022e+01,0.000000000000000e+00
	1.000000000000000e+00,0.000000000000000e+00
	9.887951493377902e-01,-1.052582632568456e-01
	-2.240970132441969e-05,-2.105165265136912e-04

 54	3.467368504525312e+01,0.000000000000000e+00
	1.000000000000000e+00,0.000000000000000e+00
	9.882732735079787e-01,-1.076531949261271e-01
	-2.345345298404274e-05,-2.153063898522542e-04

 55	3.548133892335751e+01,0.000000000000000e+00
	1.000000000000000e+00,0.000000000000000e+00
	9.877273925383544e-01,-1.100999117517267e-01
	-2.454521492329135e-05,-2.201998235034535e-04

 56	3.630780547701009e+01,0.000000000000000e+00
	1.000000000000000e+00,0.000000000000000e+00
	9.871564309619736e-01,-1.125993417937769e-01
	-2.568713807605269e-05,-2.251986835875539e-04

 57	3.715352290971721e+01,0.000000000000000e+00
	1.000000000000000e+00,0.000000000000000e+00
	9.865592678599252e-01,-1.151524157784519e-01
	-2.688146428014978e-05,-2.303048315569038e-04

 58	3.801893963205607e+01,0.000000000000000e+00
	1.000000000000000e+00,0.000000000000000e+00
	9.859347352015665e-01,-1.177600659161819e-01
	-2.813052959686714e-05,-2.355201318323638e-04

 59	3.890451449942801e+01,0.000000000000000e+00
	1.000000000000000e+00,0.000000000000000e+00
	9.852816161498349e-01,-1.204232246163679e-01
	-2.943676770033026e-05,-2.408464492327358e-04

 60	3.981071705534967e+01,0.000000000000000e+00
	1.000000000000000e+00,0.000000000000000e+00
	9.845986433337127e-01,-1.231428230922337e-01
	-3.080271333257435e-05,-2.462856461844674e-04

 61	4.073802778041122e+01,0.000000000000000e+00
	1.000000000000000e+00,0.000000000000000e+00
	9.838844970903048e-01,-1.259197898491844e-01
	-3.223100581939030e-05,-2.518395796983689e-04

 62	4.168693834703348e+01,0.000000000000000e+00
	1.000000000000000e+00,0.000000000000000e+00
	9.831378036794366e-01,-1.287550490497759e-01
	-3.372439264112681e-05,-2.575100980995519e-04

 63	4.265795188015920e+01,0.000000000000000e+00
	1.000000000000000e+00,0.000000000000000e+00
	9.823571334741339e-01,-1.316495187481383e-01
	-3.528573305173208e-05,-2.632990374962766e-04

 64	4.365158322401653e+01,0.000000000000000e+00
	1.000000000000000e+00,0.000000000000000e+00
	9.815409991308789e-01,-1.346041089864451e-01
	-3.691800173824230e-05,-2.692082179728902e-04

 65	4.466835921509625e+01,0.000000000000000e+00
	1.000000000000000e+00,0.000000000000000e+00
	9.806878537440848e-01,-1.376197197457742e-01
	-3.862429251183042e-05,-2.752394394915483e-04

 66	4.570881896148743e+01,0.000000000000000e+00
	1.000000000000000e+00,0.000000000000000e+00
	9.797960889898545e-01,-1.406972387434798e-01
	-4.040782202029093e-05,-2.813944774869596e-04

 67	4.677351412871975e+01,0.000000000000000e+00
	1.000000000000000e+00,0.000000000000000e+00
	9.788640332647454e-01,-1.438375390689818e-01
	-4.227193347050920e-05,-2.876750781379637e-04

 68	4.786300923226376e+01,0.000000000000000e+00
	1.000000000000000e+00,0.000000000000000e+00
	9.778899498259815e-01,-1.470414766496886e-01
	-4.422010034803693e-05,-2.940829532993772e-04

 69	4.897788193684454e+01,0.000000000000000e+00
	1.000000000000000e+00,0.000000000000000e+00
	9.768720349403299e-01,-1.503098875386076e-01
	-4.625593011934031e-05,-3.006197750772151e-04

 70	5.011872336272715e+01,0.000000000000000e+00
	1.000000000000000e+00,0.000000000000000e+00
	9.758084160496932e-01,-1.536435850150669e-01
	-4.838316790061370e-05,-3.072871700301339e-04

 71	5.128613839913640e+01,0.000000000000000e+00
	1.000000000000000e+00,0.000000000000000e+00
	9.746971499623659e-01,-1.570433564898785e-01
	-5.060570007526816e-05,-3.140867129797571e-04

 72	5.248074602497717e+01,0.000000000000000e+00
	1.000000000000000e+00,0.000000000000000e+00
	9.735362210798620e-01,-1.605099602062250e-01
	-5.292755784027585e-05,-3.210199204124501e-04

 73	5.370317963702517e+01,0.000000000000000e+00
	1.000000000000000e+00,0.000000000000000e+00
	9.723235396702492e-01,-1.640441217275601e-01
	-5.535292065950159e-05,-3.280882434551202e-04

 74	5.495408738576235e+01,0.000000000000000e+00
	1.000000000000000e+00,0.000000000000000e+00
	9.710569402000159e-01,-1.676465302038744e-01
	-5.788611959996822e-05,-3.352930604077488e-04

 75	5.623413251903480e+01,0.000000000000000e+00
	1.000000000000000e+00,0.000000000000000e+00
	9.697341797376642e-01,-1.713178344078157e-01
	-6.053164052467167e-05,-3.426356688156314e-04

 76	5.754399373371558e+01,0.000000000000000e+00
	1.000000000000000e+00,0.000000000000000e+00
	9.683529364434420e-01,-1.750586385323652e-01
	-6.329412711311602e-05,-3.501172770647304e-04

 77	5.888436553555878e+01,0.000000000000000e+00
	1.000000000000000e+00,0.000000000000000e+00
	9.669108081609362e-01,-1.788694977420731e-01
	-6.617838367812753e-05,-3.577389954841463e-04

 78	6.025595860743565e+01,0.000000000000000e+00
	1.000000000000000e+00,0.000000000000000e+00
	9.654053111276064e-01,-1.827509134702642e-01
	-6.918937774478716e-05,-3.655018269405284e-04

 79	6.165950018614809e+01,0.000000000000000e+00
	1.000000000000000e+00,0.000000000000000e+00
	9.638338788227684e-01,-1.867033284551331e-01
	-7.233224235446314e-05,-3.734066569102663e-04

 80	6.309573444801919e+01,0.000000000000000e+00
	1.000000000000000e+00,0.000000000000000e+00
	9.621938609730319e-01,-1.907271215082992e-01
	-7.561227805393607e-05,-3.814542430165983e-04

 81	6.456542290346542e+01,0.000000000000000e+00
	1.000000000000000e+00,0.000000000000000e+00
	9.604825227367374e-01,-1.948226020101625e-01
	-7.903495452652527e-05,-3.896452040203251e-04

 82	6.606934480075947e+01,0.000000000000000e+00
	1.000000000000000e+00,0.000000000000000e+00
	9.586970440905410e-01,-1.989900041273438e-01
	-8.260591181891803e-05,-3.979800082546876e-04

 83	6.760829753919803e+01,0.000000000000000e+00
	1.000000000000000e+00,0.000000000000000e+00
	9.568345194429376e-01,-2.032294807485872e-01
	-8.633096111412483e-05,-4.064589614971745e-04

 84	6.918309709189350e+01,0.000000000000000e+00
	1.000000000000000e+00,0.000000000000000e+00
	9.548919575011798e-01,-2.075410971367954e-01
	-9.021608499764039e-05,-4.150821942735908e-04

 85	7.079457843841364e+01,0.000000000000000e+00
	1.000000000000000e+00,0.000000000000000e+00
	9.528662814197603e-01,-2.119248242963492e-01
	-9.426743716047957e-05,-4.238496485926984e-04

 86	7.244359600749884e+01,0.000000000000000e+00
	1.000000000000000e+00,0.000000000000000e+00
	9.507543292603143e-01,-2.163805320565696e-01
	-9.849134147937129e-05,-4.327610641131392e-04

 87	7.413102413009157e+01,0.000000000000000e+00
	1.000000000000000e+00,0.000000000000000e+00
	9.485528547945128e-01,-2.209079818741113e-01
	-1.028942904109744e-04,-4.418159637482227e-04

 88	7.585775750291819e+01,0.000000000000000e+00
	1.000000000000000e+00,0.000000000000000e+00
	9.462585286831704e-01,-2.255068193592644e-01
	-1.074829426336592e-04,-4.510136387185288e-04

 89	7.762471166286898e+01,0.000000000000000e+00
	1.000000000000000e+00,0.000000000000000e+00
	9.438679400664221e-01,-2.301765665335880e-01
	-1.122641198671559e-04,-4.603531330671759e-04

 90	7.943282347242794e+01,0.000000000000000e+00
	1.000000000000000e+00,0.000000000000000e+00
	9.413775986013593e-01,-2.349166138290295e-01
	-1.172448027972814e-04,-4.698332276580590e-04

 91	8.128305161640971e+01,0.000000000000000e+00
	1.000000000000000e+00,0.000000000000000e+00
	9.387839369849641e-01,-2.397262118417073e-01
	-1.224321260300718e-04,-4.794524236834146e-04

 92	8.317637711026687e+01,0.000000000000000e+00
	1.000000000000000e+00,0.000000000000000e+00
	9.360833140014719e-01,-2.446044628568613e-01
	-1.278333719970561e-04,-4.892089257137226e-04

 93	8.511380382023741e+01,0.000000000000000e+00
	1.000000000000000e+00,0.000000000000000e+00
	9.332720181344358e-01,-2.495503121651283e-01
	-1.334559637311283e-04,-4.991006243302566e-04

 94	8.709635899560782e+01,0.000000000000000e+00
	1.000000000000000e+00,0.000000000000000e+00
	9.303462717846738e-01,-2.545625391942650e-01
	-1.393074564306524e-04,-5.091250783885301e-04

 95	8.912509381337429e+01,0.000000000000000e+00
	1.000000000000000e+00,0.000000000000000e+00
	9.273022361359435e-01,-2.596397484847465e-01
	-1.453955277281129e-04,-5.192794969694931e-04

 96	9.120108393559070e+01,0.000000000000000e+00
	1.000000000000000e+00,0.000000000000000e+00
	9.241360167105498e-01,-2.647803605422960e-01
	-1.517279665789004e-04,-5.295607210845920e-04

 97	9.332543007969882e+01,0.000000000000000e+00
	1.000000000000000e+00,0.000000000000000e+00
	9.208436696570798e-01,-2.699826026053578e-01
	-1.583126606858405e-04,-5.399652052107157e-04

 98	9.549925860214330e+01,0.000000000000000e+00
	1.000000000000000e+00,0.000000000000000e+00
	9.174212088120562e-01,-2.752444993707989e-01
	-1.651575823758875e-04,-5.504889987415979e-04

 99	9.772372209558077e+01,0.000000000000000e+00
	1.000000000000000e+00,0.000000000000000e+00
	9.138646135764116e-01,-2.805638637266878e-01
	-1.722707728471769e-04,-5.611277274533757e-04

 100	9.999999999999969e+01,0.000000000000000e+00
	1.000000000000000e+00,0.000000000000000e+00
	9.101698376462758e-01,-2.859382875468545e-01
	-1.796603247074483e-04,-5.718765750937090e-04

 101	1.023292992280751e+02,0.000000000000000e+00
	1.000000000000000e+00,0.000000000000000e+00
	9.063328186355538e-01,-2.913651326080148e-01
	-1.873343627288924e-04,-5.827302652160296e-04

 102	1.047128548050896e+02,0.000000000000000e+00
	1.000000000000000e+00,0.000000000000000e+00
	9.023494886251066e-01,-2.968415216965361e-01
	-1.953010227497868e-04,-5.936830433930722e-04

 103	1.071519305237603e+02,0.000000000000000e+00
	1.000000000000000e+00,0.000000000000000e+00
	8.982157856699493e-01,-3.023643299783639e-01
	-2.035684286601014e-04,-6.047286599567278e-04

 104	1.096478196143182e+02,0.000000000000000e+00
	1.000000000000000e+00,0.000000000000000e+00
	8.939276662916958e-01,-3.079301767121539e-01
	-2.121446674166084e-04,-6.158603534243078e-04

 105	1.122018454301960e+02,0.000000000000000e+00
	1.000000000000000e+00,0.000000000000000e+00
