Title: * second-order system step response
Date: Tue Jun 30 09:58:04  2026
Command: ngspice-46, Build 
Plotname: Transient Analysis
Flags: real
No. Variables: 6
No. Points: 5169
Variables:
	0	time	time
	1	v(1)	voltage
	2	v(2)	voltage
	3	v(3)	voltage
	4	i(l1)	current
	5	i(v1)	current
Values:
 0	0.000000000000000e+00
	0.000000000000000e+00
	0.000000000000000e+00
	0.000000000000000e+00
	0.000000000000000e+00
	0.000000000000000e+00

 1	1.000000000000000e-11
	1.000000000000000e-02
	9.999999999500001e-03
	2.499999999875000e-23
	9.999999999500001e-14
	-9.999975847385656e-14

 2	1.084000000002800e-11
	1.084000000002800e-02
	1.083999999948247e-02
	2.729121759871863e-23
	1.091055999948688e-13
	-1.091054861457330e-13

 3	1.252000000008400e-11
	1.252000000008400e-02
	1.251999999944036e-02
	3.228572319866435e-23
	1.287279999946181e-13
	-1.287277920924979e-13

 4	1.588000000019600e-11
	1.588000000019600e-02
	1.587999999931381e-02
	4.510277919861841e-23
	1.764399999941155e-13
	-1.764395892722703e-13

 5	2.260000000042001e-11
	2.260000000042000e-02
	2.259999999889134e-02
	8.560529439883536e-23
	3.057327999923946e-13
	-3.057320982491341e-13

 6	3.604000000086801e-11
	3.604000000086801e-02
	3.603999999736904e-02
	2.545337295998958e-22
	6.997935999803999e-13
	-6.997931216168319e-13

 7	6.292000000176402e-11
	6.292000000176401e-02
	6.291999999161493e-02
	1.171682555182446e-21
	2.029815999876679e-12
	-2.029815200144114e-12

 8	1.166800000035560e-10
	1.166800000035560e-01
	1.166799999692687e-01
	7.143934714617348e-21
	6.857463998986154e-12
	-6.857463300757872e-12

 9	2.242000000071401e-10
	2.242000000071401e-01
	2.241999998812242e-01
	5.020655056254616e-20
	2.518317279155951e-11
	-2.518316972510704e-11

 10	4.392400000143082e-10
	4.392400000143081e-01
	4.392399995317270e-01
	3.773345762720008e-19
	9.651624153081781e-11
	-9.651623456852221e-11

 11	7.196200000071541e-10
	7.196200000071541e-01
	7.196199987122700e-01
	1.623248900044321e-18
	2.589768246804985e-10
	-2.589768153302696e-10

 12	1.000000000000000e-09
	1.000000000000000e+00
	9.999999974997482e-01
	4.283449397248737e-18
	5.000503519433102e-10
	-5.000503566776615e-10

 13	1.056075999998569e-09
	9.439240000014307e-01
	9.439239972365217e-01
	5.058674630328971e-18
	5.529818340109947e-10
	-5.529818220670447e-10

 14	1.168227999995708e-09
	8.317720000042923e-01
	8.317719967415135e-01
	6.748717786928211e-18
	6.525557625667664e-10
	-6.525557612960586e-10

 15	1.392531999989984e-09
	6.074680000100157e-01
	6.074679959401686e-01
	1.086056105507291e-17
	8.139694062218839e-10
	-8.139694045731450e-10

 16	1.696265999994992e-09
	3.037340000050079e-01
	3.037339952432533e-01
	1.756670527601824e-17
	9.523509190192180e-10
	-9.523509197502778e-10

 17	2.000000000000000e-09
	0.000000000000000e+00
	-4.992390444587032e-09
	2.497336899984814e-17
	9.984780889174063e-10
	-9.984780889174063e-10

 18	2.060746800001002e-09
	0.000000000000000e+00
	-4.992390443070672e-09
	2.648972771870877e-17
	9.984780886141344e-10
	-9.984780886141344e-10

 19	2.182240400003005e-09
	0.000000000000000e+00
	-4.992390440037953e-09
	2.952244515550889e-17
	9.984780880075908e-10
	-9.984780880075908e-10

 20	2.425227600007011e-09
	0.000000000000000e+00
	-4.992390433972518e-09
	3.558788002358228e-17
	9.984780867945037e-10
	-9.984780867945037e-10

 21	2.911202000015024e-09
	0.000000000000000e+00
	-4.992390421841649e-09
	4.771874973762174e-17
	9.984780843683298e-10
	-9.984780843683298e-10

 22	3.883150800031048e-09
	0.000000000000000e+00
	-4.992390397579909e-09
	7.198048907727127e-17
	9.984780795159819e-10
	-9.984780795159819e-10

 23	5.827048400063099e-09
	0.000000000000000e+00
	-4.992390349056429e-09
	1.205039674028528e-16
	9.984780698112857e-10
	-9.984780698112859e-10

 24	9.714843600127198e-09
	0.000000000000000e+00
	-4.992390252009469e-09
	2.175509226391456e-16
	9.984780504018938e-10
	-9.984780504018938e-10

 25	1.749043400025540e-08
	0.000000000000000e+00
	-4.992390057915552e-09
	4.116448274522507e-16
	9.984780115831104e-10
	-9.984780115831104e-10

 26	3.304161480051180e-08
	0.000000000000000e+00
	-4.992389669727718e-09
	7.998326144405392e-16
	9.984779339455435e-10
	-9.984779339455435e-10

 27	6.414397640102461e-08
	0.000000000000000e+00
	-4.992388893352050e-09
	1.576208097865428e-15
	9.984777786704100e-10
	-9.984777786704100e-10

 28	1.263486996020502e-07
	0.000000000000000e+00
	-4.992387340600712e-09
	3.128958702508454e-15
	9.984774681201425e-10
	-9.984774681201425e-10

 29	2.507581460041014e-07
	0.000000000000000e+00
	-4.992384235098042e-09
	6.234458462967502e-15
	9.984768470196084e-10
	-9.984768470196084e-10

 30	4.995770388082039e-07
	0.000000000000000e+00
	-4.992378024092699e-09
	1.244545218857757e-14
	9.984756048185397e-10
	-9.984756048185397e-10

 31	9.972148244164088e-07
	0.000000000000000e+00
	-4.992365602082010e-09
	2.486741645856563e-14
	9.984731204164019e-10
	-9.984731204164019e-10

 32	1.992490395632818e-06
	0.000000000000000e+00
	-4.992340758060629e-09
	4.971125227361334e-14
	9.984681516121258e-10
	-9.984681516121258e-10

 33	3.983041538065638e-06
	0.000000000000000e+00
	-4.992291070017871e-09
	9.939855300399521e-14
	9.984582140035742e-10
	-9.984582140035742e-10

 34	7.964143822931277e-06
	0.000000000000000e+00
	-4.992191693932394e-09
	1.987716708659052e-13
	9.984383387864789e-10
	-9.984383387864789e-10

 35	1.592634839266255e-05
	0.000000000000000e+00
	-4.991992941761737e-09
	3.975119721943167e-13
	9.983985883523475e-10
	-9.983985883523475e-10

 36	3.185075753212511e-05
	0.000000000000000e+00
	-4.991595437422783e-09
	7.949688372696119e-13
	9.983190874845566e-10
	-9.983190874845566e-10

 37	6.369957581105022e-05
	0.000000000000000e+00
	-4.990800428763769e-09
	1.589787617095784e-12
	9.981600857527539e-10
	-9.981600857527539e-10

 38	1.273972123689004e-04
	0.000000000000000e+00
	-4.989210411596913e-09
	3.179045375477534e-12
	9.978420823193825e-10
	-9.978420823193825e-10

 39	2.547924854846009e-04
	0.000000000000000e+00
	-4.986030378472250e-09
	6.356041687591875e-12
	9.972060756944499e-10
	-9.972060756944499e-10

 40	5.095830317160018e-04
	0.000000000000000e+00
	-4.979670321890680e-09
	1.270395750015219e-11
	9.959340643781361e-10
	-9.959340643781361e-10

 41	1.019164124178803e-03
	0.000000000000000e+00
	-4.966950285995543e-09
	2.537548198935137e-11
	9.933900571991086e-10
	-9.933900571991086e-10

 42	2.019164124178803e-03
	0.000000000000000e+00
	-4.941989129176323e-09
	5.014783052728102e-11
	9.883978258352646e-10
	-9.883978258352646e-10

 43	3.019164124178803e-03
	0.000000000000000e+00
	-4.917029225272850e-09
	7.479537641340394e-11
	9.834058450545700e-10
	-9.834058450545700e-10

 44	4.019164124178803e-03
	0.000000000000000e+00
	-4.892071190473818e-09
	9.931812745277059e-11
	9.784142380947636e-10
	-9.784142380947636e-10

 45	5.019164124178803e-03
	0.000000000000000e+00
	-4.867115637848072e-09
	1.237160945235753e-10
	9.734231275696143e-10
	-9.734231275696143e-10

 46	6.019164124178803e-03
	0.000000000000000e+00
	-4.842163177344876e-09
	1.479892915615576e-10
	9.684326354689752e-10
	-9.684326354689752e-10

 47	7.019164124178803e-03
	0.000000000000000e+00
	-4.817214415794263e-09
	1.721377355444054e-10
	9.634428831588526e-10
	-9.634428831588526e-10

 48	8.019164124178803e-03
	0.000000000000000e+00
	-4.792269956907458e-09
	1.961614464761596e-10
	9.584539913814916e-10
	-9.584539913814916e-10

 49	9.019164124178802e-03
	0.000000000000000e+00
	-4.767330401277377e-09
	2.200604473716216e-10
	9.534660802554755e-10
	-9.534660802554755e-10

 50	1.001916412417880e-02
	0.000000000000000e+00
	-4.742396346379206e-09
	2.438347642407630e-10
	9.484792692758411e-10
	-9.484792692758411e-10

 51	1.101916412417880e-02
	0.000000000000000e+00
	-4.717468386571046e-09
	2.674844260731386e-10
	9.434936773142091e-10
	-9.434936773142091e-10

 52	1.201916412417880e-02
	0.000000000000000e+00
	-4.692547113094642e-09
	2.910094648223028e-10
	9.385094226189285e-10
	-9.385094226189285e-10

 53	1.301916412417881e-02
	0.000000000000000e+00
	-4.667633114076183e-09
	3.144099153902298e-10
	9.335266228152366e-10
	-9.335266228152366e-10

 54	1.401916412417881e-02
	0.000000000000000e+00
	-4.642726974527170e-09
	3.376858156117381e-10
	9.285453949054338e-10
	-9.285453949054339e-10

 55	1.501916412417881e-02
	0.000000000000000e+00
	-4.617829276345360e-09
	3.608372062389195e-10
	9.235658552690720e-10
	-9.235658552690720e-10

 56	1.601916412417881e-02
	0.000000000000000e+00
	-4.592940598315795e-09
	3.838641309255723e-10
	9.185881196631591e-10
	-9.185881196631591e-10

 57	1.701916412417881e-02
	0.000000000000000e+00
	-4.568061516111882e-09
	4.067666362116413e-10
	9.136123032223765e-10
	-9.136123032223765e-10

 58	1.801916412417881e-02
	0.000000000000000e+00
	-4.543192602296563e-09
	4.295447715076623e-10
	9.086385204593125e-10
	-9.086385204593126e-10

 59	1.901916412417881e-02
	0.000000000000000e+00
	-4.518334426323545e-09
	4.521985890792125e-10
	9.036668852647090e-10
	-9.036668852647091e-10

 60	2.001916412417881e-02
	0.000000000000000e+00
	-4.493487554538613e-09
	4.747281440313679e-10
	8.986975109077225e-10
	-8.986975109077225e-10

 61	2.101916412417881e-02
	0.000000000000000e+00
	-4.468652550181001e-09
	4.971334942931668e-10
	8.937305100362003e-10
	-8.937305100362003e-10

 62	2.201916412417881e-02
	0.000000000000000e+00
	-4.443829973384847e-09
	5.194147006020813e-10
	8.887659946769695e-10
	-8.887659946769695e-10

 63	2.301916412417881e-02
	0.000000000000000e+00
	-4.419020381180706e-09
	5.415718264884952e-10
	8.838040762361412e-10
	-8.838040762361412e-10

 64	2.401916412417882e-02
	0.000000000000000e+00
	-4.394224327497139e-09
	5.636049382601898e-10
	8.788448654994279e-10
	-8.788448654994280e-10

 65	2.501916412417882e-02
	0.000000000000000e+00
	-4.369442363162372e-09
	5.855141049868384e-10
	8.738884726324745e-10
	-8.738884726324745e-10

 66	2.601916412417882e-02
	0.000000000000000e+00
	-4.344675035906022e-09
	6.072993984845093e-10
	8.689350071812044e-10
	-8.689350071812044e-10

 67	2.701916412417882e-02
	0.000000000000000e+00
	-4.319922890360893e-09
	6.289608933001765e-10
	8.639845780721785e-10
	-8.639845780721785e-10

 68	2.801916412417882e-02
	0.000000000000000e+00
	-4.295186468064838e-09
	6.504986666962407e-10
	8.590372936129674e-10
	-8.590372936129675e-10

 69	2.901916412417882e-02
	0.000000000000000e+00
	-4.270466307462690e-09
	6.719127986350593e-10
	8.540932614925380e-10
	-8.540932614925380e-10

 70	3.001916412417882e-02
	0.000000000000000e+00
	-4.245762943908266e-09
	6.932033717634867e-10
	8.491525887816531e-10
	-8.491525887816532e-10

 71	3.101916412417882e-02
	0.000000000000000e+00
	-4.221076909666425e-09
	7.143704713974234e-10
	8.442153819332851e-10
	-8.442153819332851e-10

 72	3.201916412417882e-02
	0.000000000000000e+00
	-4.196408733915210e-09
	7.354141855063775e-10
	8.392817467830420e-10
	-8.392817467830421e-10

 73	3.301916412417882e-02
	0.000000000000000e+00
	-4.171758942748040e-09
	7.563346046980357e-10
	8.343517885496080e-10
	-8.343517885496080e-10

 74	3.401916412417882e-02
	0.000000000000000e+00
	-4.147128059175978e-09
	7.771318222028455e-10
	8.294256118351955e-10
	-8.294256118351955e-10

 75	3.501916412417883e-02
	0.000000000000000e+00
	-4.122516603130058e-09
	7.978059338586106e-10
	8.245033206260116e-10
	-8.245033206260116e-10

 76	3.601916412417883e-02
	0.000000000000000e+00
	-4.097925091463689e-09
	8.183570380950951e-10
	8.195850182927378e-10
	-8.195850182927378e-10

 77	3.701916412417883e-02
	0.000000000000000e+00
	-4.073354037955107e-09
	8.387852359186419e-10
	8.146708075910214e-10
	-8.146708075910215e-10

 78	3.801916412417883e-02
	0.000000000000000e+00
	-4.048803953309905e-09
	8.590906308968044e-10
	8.097607906619810e-10
	-8.097607906619811e-10

 79	3.901916412417883e-02
	0.000000000000000e+00
	-4.024275345163622e-09
	8.792733291429880e-10
	8.048550690327243e-10
	-8.048550690327244e-10

 80	4.001916412417883e-02
	0.000000000000000e+00
	-3.999768718084391e-09
	8.993334393011076e-10
	7.999537436168782e-10
	-7.999537436168783e-10

 81	4.101916412417883e-02
	0.000000000000000e+00
	-3.975284573575662e-09
	9.192710725302578e-10
	7.950569147151324e-10
	-7.950569147151325e-10

 82	4.201916412417883e-02
	0.000000000000000e+00
	-3.950823410078976e-09
	9.390863424893944e-10
	7.901646820157952e-10
	-7.901646820157952e-10

 83	4.301916412417883e-02
	0.000000000000000e+00
	-3.926385722976808e-09
	9.587793653220339e-10
	7.852771445953615e-10
	-7.852771445953617e-10

 84	4.401916412417883e-02
	0.000000000000000e+00
	-3.901972004595470e-09
	9.783502596409643e-10
	7.803944009190939e-10
	-7.803944009190940e-10

 85	4.501916412417883e-02
	0.000000000000000e+00
	-3.877582744208076e-09
	9.977991465129727e-10
	7.755165488416151e-10
	-7.755165488416152e-10

 86	4.601916412417884e-02
	0.000000000000000e+00
	-3.853218428037570e-09
	1.017126149443586e-09
	7.706436856075139e-10
	-7.706436856075140e-10

 87	4.701916412417884e-02
	0.000000000000000e+00
	-3.828879539259812e-09
	1.036331394361830e-09
	7.657759078519624e-10
	-7.657759078519625e-10

 88	4.801916412417884e-02
	0.000000000000000e+00
	-3.804566558006728e-09
	1.055415009604996e-09
	7.609133116013456e-10
	-7.609133116013456e-10

 89	4.901916412417884e-02
	0.000000000000000e+00
	-3.780279961369516e-09
	1.074377125903436e-09
	7.560559922739033e-10
	-7.560559922739033e-10

 90	5.001916412417884e-02
	0.000000000000000e+00
	-3.756020223401914e-09
	1.093217876365365e-09
	7.512040446803830e-10
	-7.512040446803830e-10

 91	5.101916412417884e-02
	0.000000000000000e+00
	-3.731787815123533e-09
	1.111937396461678e-09
	7.463575630247066e-10
	-7.463575630247066e-10

 92	5.201916412417884e-02
	0.000000000000000e+00
	-3.707583204523234e-09
	1.130535824010795e-09
	7.415166409046469e-10
	-7.415166409046470e-10

 93	5.301916412417884e-02
	0.000000000000000e+00
	-3.683406856562583e-09
	1.149013299163509e-09
	7.366813713125167e-10
	-7.366813713125167e-10

 94	5.401916412417884e-02
	0.000000000000000e+00
	-3.659259233179349e-09
	1.167369964387864e-09
	7.318518466358699e-10
	-7.318518466358700e-10

 95	5.501916412417884e-02
	0.000000000000000e+00
	-3.635140793291068e-09
	1.185605964454040e-09
	7.270281586582136e-10
	-7.270281586582136e-10

 96	5.601916412417884e-02
	0.000000000000000e+00
	-3.611051992798660e-09
	1.203721446419264e-09
	7.222103985597320e-10
	-7.222103985597320e-10

 97	5.701916412417884e-02
	0.000000000000000e+00
	-3.586993284590107e-09
	1.221716559612736e-09
	7.173986569180215e-10
	-7.173986569180215e-10

 98	5.801916412417885e-02
	0.000000000000000e+00
	-3.562965118544188e-09
	1.239591455620571e-09
	7.125930237088376e-10
	-7.125930237088377e-10

 99	5.901916412417885e-02
	0.000000000000000e+00
	-3.538967941534264e-09
	1.257346288270767e-09
	7.077935883068528e-10
	-7.077935883068529e-10

 100	6.001916412417885e-02
	0.000000000000000e+00
	-3.515002197432125e-09
	1.274981213618183e-09
	7.030004394864250e-10
	-7.030004394864251e-10

 101	6.101916412417885e-02
	0.000000000000000e+00
	-3.491068327111895e-09
	1.292496389929543e-09
	6.982136654223790e-10
	-6.982136654223790e-10

 102	6.201916412417885e-02
	0.000000000000000e+00
	-3.467166768453984e-09
	1.309891977668457e-09
	6.934333536907969e-10
	-6.934333536907969e-10

 103	6.301916412417885e-02
	0.000000000000000e+00
	-3.443297956349103e-09
	1.327168139480465e-09
	6.886595912698207e-10
	-6.886595912698207e-10

 104	6.401916412417885e-02
	0.000000000000000e+00
	-3.419462322702328e-09
	1.344325040178093e-09
	6.838924645404656e-10
	-6.838924645404656e-10

 105	6.501916412417885e-02
	0.000000000000000e+00
	-3.395660296437218e-09
	1.361362846725942e-09
	6.791320592874437e-10
	-6.791320592874438e-10

 106	6.601916412417885e-02
	0.000000000000000e+00
	-3.371892303499995e-09
	1.378281728225785e-09
	6.743784606999990e-10
	-6.743784606999990e-10

 107	6.701916412417885e-02
	0.000000000000000e+00
	-3.348158766863766e-09
	1.395081855901694e-09
	6.696317533727532e-10
	-6.696317533727533e-10

 108	6.801916412417885e-02
	0.000000000000000e+00
	-3.324460106532806e-09
	1.411763403085185e-09
	6.648920213065613e-10
	-6.648920213065613e-10

 109	6.901916412417886e-02
	0.000000000000000e+00
	-3.300796739546893e-09
	1.428326545200384e-09
	6.601593479093786e-10
	-6.601593479093786e-10

 110	7.001916412417886e-02
	0.000000000000000e+00
	-3.277169079985687e-09
	1.444771459749215e-09
	6.554338159971374e-10
	-6.554338159971375e-10

 111	7.101916412417886e-02
	0.000000000000000e+00
	-3.253577538973175e-09
	1.461098326296612e-09
	6.507155077946350e-10
	-6.507155077946351e-10

 112	7.201916412417886e-02
	0.000000000000000e+00
	-3.230022524682156e-09
	1.477307326455750e-09
	6.460045049364311e-10
	-6.460045049364312e-10

 113	7.301916412417886e-02
	0.000000000000000e+00
	-3.206504442338780e-09
	1.493398643873302e-09
	6.413008884677559e-10
	-6.413008884677561e-10

 114	7.401916412417886e-02
	0.000000000000000e+00
	-3.183023694227144e-09
	1.509372464214717e-09
	6.366047388454288e-10
	-6.366047388454288e-10

 115	7.501916412417886e-02
	0.000000000000000e+00
	-3.159580679693930e-09
	1.525228975149520e-09
	6.319161359387861e-10
	-6.319161359387862e-10

 116	7.601916412417886e-02
	0.000000000000000e+00
	-3.136175795153097e-09
	1.540968366336637e-09
	6.272351590306194e-10
	-6.272351590306195e-10

 117	7.701916412417886e-02
	0.000000000000000e+00
	-3.112809434090622e-09
	1.556590829409745e-09
	6.225618868181245e-10
	-6.225618868181245e-10

 118	7.801916412417886e-02
	0.000000000000000e+00
	-3.089481987069291e-09
	1.572096557962645e-09
	6.178963974138583e-10
	-6.178963974138583e-10

 119	7.901916412417886e-02
	0.000000000000000e+00
	-3.066193841733540e-09
	1.587485747534652e-09
	6.132387683467081e-10
	-6.132387683467082e-10

 120	8.001916412417887e-02
	0.000000000000000e+00
	-3.042945382814343e-09
	1.602758595596021e-09
	6.085890765628686e-10
	-6.085890765628686e-10

 121	8.101916412417887e-02
	0.000000000000000e+00
	-3.019736992134148e-09
	1.617915301533392e-09
	6.039473984268295e-10
	-6.039473984268296e-10

 122	8.201916412417887e-02
	0.000000000000000e+00
	-2.996569048611860e-09
	1.632956066635257e-09
	5.993138097223721e-10
	-5.993138097223721e-10

 123	8.301916412417887e-02
	0.000000000000000e+00
	-2.973441928267879e-09
	1.647881094077456e-09
	5.946883856535759e-10
	-5.946883856535760e-10

 124	8.401916412417887e-02
	0.000000000000000e+00
	-2.950356004229171e-09
	1.662690588908699e-09
	5.900712008458342e-10
	-5.900712008458342e-10

 125	8.501916412417887e-02
	0.000000000000000e+00
	-2.927311646734400e-09
	1.677384758036107e-09
	5.854623293468800e-10
	-5.854623293468801e-10

 126	8.601916412417887e-02
	0.000000000000000e+00
	-2.904309223139099e-09
	1.691963810210791e-09
	5.808618446278197e-10
	-5.808618446278199e-10

 127	8.701916412417887e-02
	0.000000000000000e+00
	-2.881349097920888e-09
	1.706427956013441e-09
	5.762698195841776e-10
	-5.762698195841777e-10

 128	8.801916412417887e-02
	0.000000000000000e+00
	-2.858431632684740e-09
	1.720777407839955e-09
	5.716863265369480e-10
	-5.716863265369481e-10

 129	8.901916412417887e-02
	0.000000000000000e+00
	-2.835557186168289e-09
	1.735012379887087e-09
	5.671114372336578e-10
	-5.671114372336578e-10

 130	9.001916412417887e-02
	0.000000000000000e+00
	-2.812726114247186e-09
	1.749133088138125e-09
	5.625452228494373e-10
	-5.625452228494373e-10

 131	9.101916412417888e-02
	0.000000000000000e+00
	-2.789938769940500e-09
	1.763139750348594e-09
	5.579877539881000e-10
	-5.579877539881000e-10

 132	9.201916412417888e-02
	0.000000000000000e+00
	-2.767195503416157e-09
	1.777032586031986e-09
	5.534391006832314e-10
	-5.534391006832315e-10

 133	9.301916412417888e-02
	0.000000000000000e+00
	-2.744496661996431e-09
	1.790811816445517e-09
	5.488993323992862e-10
	-5.488993323992862e-10

 134	9.401916412417888e-02
	0.000000000000000e+00
	-2.721842590163478e-09
	1.804477664575917e-09
	5.443685180326955e-10
	-5.443685180326955e-10

 135	9.501916412417888e-02
	0.000000000000000e+00
	-2.699233629564903e-09
	1.818030355125238e-09
	5.398467259129807e-10
	-5.398467259129807e-10

 136	9.601916412417888e-02
	0.000000000000000e+00
	-2.676670119019387e-09
	1.831470114496698e-09
